(1764930658.446515) vcan0 123#724680BF5B4BC0A9
(1764930658.679183) vcan0 200#4D7C04438F4ADA47
(1764930663.443761) vcan0 123#7059ED83EE42881C
(1764930663.673010) vcan0 200#6BEE5CF63AD2273A
(1764930668.442974) vcan0 123#DBA85063207B4D82
(1764930668.444164) vcan0 123#5BA85063207B4D82
(1764930668.685102) vcan0 200#CE50A3A4D495E61F
(1764930673.449797) vcan0 123#7BACF0F2D796E0F3
(1764930673.450261) vcan0 123#3BACF0F2D796E0F3
(1764930673.450696) vcan0 7E0#0000000000000000
(1764930673.674187) vcan0 200#A7CC4C1697A6C945
(1764930678.459005) vcan0 123#733873BC7F03CB04
(1764930678.459403) vcan0 123#333873BC7F03CB04
(1764930678.460079) vcan0 7E0#0000000000000000
(1764930678.681095) vcan0 200#F497FD68C7E0D991
(1764930683.442060) vcan0 123#13ED5E53FB2B4727
(1764930683.442434) vcan0 123#03ED5E53FB2B4727
(1764930683.442614) vcan0 7E0#0000000000000000
(1764930683.688795) vcan0 200#2BB43F177F66F5D9
(1764930688.447815) vcan0 123#C287B184F3CA220B
(1764930688.448226) vcan0 123#4287B184F3CA220B
(1764930688.448623) vcan0 7E0#0000000000000000
(1764930688.674699) vcan0 200#C1696A8ED93FD0AC
(1764930693.439426) vcan0 123#E31E70C2BD6D8D55
(1764930693.439611) vcan0 123#631E70C2BD6D8D55
(1764930693.439660) vcan0 7E0#0000000000000000
(1764930693.680371) vcan0 200#13089DB2213C5FCD
(1764930698.455426) vcan0 123#B9C597776BE6E62D
(1764930698.455636) vcan0 123#39C597776BE6E62D
(1764930698.455888) vcan0 7E0#0000000000000000
(1764930698.680706) vcan0 200#CF8853E6568B6813
(1764930703.453058) vcan0 123#71443E33B1CC4387
(1764930703.453351) vcan0 123#31443E33B1CC4387
(1764930703.453423) vcan0 7E0#0000000000000000
(1764930703.678573) vcan0 200#D8B79AA4FC5C8A1F
(1764930708.439425) vcan0 123#76CE339A95222FEA
(1764930708.439631) vcan0 123#36CE339A95222FEA
(1764930708.679259) vcan0 200#661A2046CF5AC6B1
(1764930713.450191) vcan0 123#403406EEA753E27F
(1764930713.450489) vcan0 123#003406EEA753E27F
(1764930713.450564) vcan0 7E0#0000000000000000
(1764930713.675609) vcan0 200#2DD4089AD6C5BF3B
(1764930718.448610) vcan0 123#8D8101C1C991858E
(1764930718.449018) vcan0 123#0D8101C1C991858E
(1764930718.687764) vcan0 200#1E5A5FB429ECA360
(1764930723.456130) vcan0 123#4CB437BC78920258
(1764930723.456569) vcan0 123#0CB437BC78920258
(1764930723.457090) vcan0 7E0#0000000000000000
(1764930723.683590) vcan0 200#B29C50FC98D05C18
(1764930728.442544) vcan0 123#473F346AC6A7A071
(1764930728.443002) vcan0 123#073F346AC6A7A071
(1764930728.681118) vcan0 200#3250D6760CB93238
(1764930733.443606) vcan0 123#2BD7C322A1D2237B
(1764930733.444265) vcan0 123#0BD7C322A1D2237B
(1764930733.444604) vcan0 7E0#0000000000000000
(1764930733.682746) vcan0 200#3AA324EFE5EEABA8
(1764930738.457414) vcan0 123#89D2E354EFFD538F
(1764930738.457825) vcan0 123#09D2E354EFFD538F
(1764930738.458792) vcan0 7E0#0000000000000000
(1764930738.682227) vcan0 200#6BA8B8CD0A3AAD5C
(1764930743.444684) vcan0 123#9EF1C967F7065079
(1764930743.445116) vcan0 123#1EF1C967F7065079
(1764930743.445456) vcan0 7E0#0000000000000000
(1764930743.669551) vcan0 200#3FEDB7B5A53788E2
(1764930748.442872) vcan0 123#314652403CFC739D
(1764930748.443422) vcan0 123#114652403CFC739D
(1764930748.673590) vcan0 200#A4F5B6ABB007946B
(1764930753.442126) vcan0 123#A3902133DA6EA562
(1764930753.442529) vcan0 123#23902133DA6EA562
(1764930753.443334) vcan0 7E0#0000000000000000
(1764930753.689586) vcan0 200#CA1E20BCCB57875A
(1764930758.448536) vcan0 123#4E7BD0949BA815CE
(1764930758.448889) vcan0 123#0E7BD0949BA815CE
(1764930758.449220) vcan0 7E0#0000000000000000
(1764930758.680216) vcan0 200#2EE00DD80BE0835E
(1764930763.446876) vcan0 123#B93955F975119D70
(1764930763.447163) vcan0 123#393955F975119D70
(1764930763.447425) vcan0 7E0#0000000000000000
(1764930763.672726) vcan0 200#FF2F139EAAB27262
(1764930768.444631) vcan0 123#2EF8468146F732F6
(1764930768.444848) vcan0 123#0EF8468146F732F6
(1764930768.682847) vcan0 200#F4F3EA7C1ED80D23
(1764930773.454432) vcan0 123#6A892EEABF70E4E1
(1764930773.454667) vcan0 123#2A892EEABF70E4E1
(1764930773.678967) vcan0 200#A9940363D789DB94
(1764930778.688975) vcan0 200#6AC3A9464519875B
(1764930778.710435) vcan0 123#4BEADDDC76A23CDE
(1764930778.710894) vcan0 123#0BEADDDC76A23CDE
(1764930783.458855) vcan0 123#1172ECC1BC65B5F9
(1764930783.459181) vcan0 123#0172ECC1BC65B5F9
(1764930783.686050) vcan0 200#C0A0A7CBFF54C85B
(1764930788.445567) vcan0 123#DA724383C8BC7952
(1764930788.445761) vcan0 123#5A724383C8BC7952
(1764930788.445845) vcan0 7E0#0000000000000000
(1764930788.672955) vcan0 200#5736A053D748B2A8
(1764930793.447907) vcan0 123#18B8277B3AB975E0
(1764930793.448077) vcan0 123#08B8277B3AB975E0
(1764930793.448298) vcan0 7E0#0000000000000000
(1764930793.674927) vcan0 200#8F31533F842E8070
(1764930798.456211) vcan0 123#0A0145F3FDFD9048
(1764930798.456386) vcan0 123#020145F3FDFD9048
(1764930798.456575) vcan0 7E0#0000000000000000
(1764930798.684034) vcan0 200#F8FC87947CEA775B
(1764930803.452198) vcan0 123#D0C47380BE299A63
(1764930803.452327) vcan0 123#50C47380BE299A63
(1764930803.452455) vcan0 7E0#0000000000000000
(1764930803.686001) vcan0 200#5925018EC14F3F0F
(1764930808.457999) vcan0 123#B73EB0DB69B6DBA8
(1764930808.458139) vcan0 123#373EB0DB69B6DBA8
(1764930808.458216) vcan0 7E0#0000000000000000
(1764930808.677952) vcan0 200#7C9CED3C732E9FB2
(1764930813.442769) vcan0 123#44C3E986B22A4262
(1764930813.443323) vcan0 123#04C3E986B22A4262
(1764930813.443403) vcan0 7E0#0100000000000000
(1764930813.681959) vcan0 200#62B5A210755A7BC9
(1764930818.448079) vcan0 123#52CCEF81176B2213
(1764930818.448257) vcan0 123#12CCEF81176B2213
(1764930818.448325) vcan0 7E0#0100000000000000
(1764930818.673780) vcan0 200#538D5A8F4D207FFD
(1764930823.450451) vcan0 123#C76A1726C8577B86
(1764930823.450756) vcan0 123#476A1726C8577B86
(1764930823.450873) vcan0 7E0#0100000000000000
(1764930823.682564) vcan0 200#BB8A796C2FD1AF17
(1764930828.453759) vcan0 123#24E85126FEF69F36
(1764930828.454065) vcan0 123#04E85126FEF69F36
(1764930828.672105) vcan0 200#DF983EC2C20BFDE9
(1764930833.445547) vcan0 123#4989180F5D92AB8E
(1764930833.445838) vcan0 123#0989180F5D92AB8E
(1764930833.445971) vcan0 7E0#0100000000000000
(1764930833.679249) vcan0 200#569AF87F1705DAEF
(1764930838.439664) vcan0 123#CE110E8F7AE03DCC
(1764930838.440105) vcan0 123#4E110E8F7AE03DCC
(1764930838.676018) vcan0 200#4CE169C6247A8416
(1764930843.458500) vcan0 123#DB3A4A6B25B6C64E
(1764930843.458795) vcan0 123#5B3A4A6B25B6C64E
(1764930843.459262) vcan0 7E0#0100000000000000
(1764930843.680990) vcan0 200#926C62A47C888C6F
(1764930848.439104) vcan0 123#1A5DA2509FC35D43
(1764930848.439715) vcan0 123#0A5DA2509FC35D43
(1764930848.440402) vcan0 7E0#0100000000000000
(1764930848.675784) vcan0 200#C59E0485370680F5
(1764930853.446134) vcan0 123#2397D647B2C6EA4C
(1764930853.446787) vcan0 123#0397D647B2C6EA4C
(1764930853.686615) vcan0 200#92DB2388FD4847EB
(1764930858.443508) vcan0 123#592D3BF03A564847
(1764930858.444052) vcan0 123#192D3BF03A564847
(1764930858.444422) vcan0 7E0#0100000000000000
(1764930858.681864) vcan0 200#C43C929ADC662B59
(1764930863.455420) vcan0 123#60ED96384E193766
(1764930863.456166) vcan0 123#20ED96384E193766
(1764930863.456565) vcan0 7E0#0100000000000000
(1764930863.687051) vcan0 200#2D14C300D3A0E1E8
(1764930868.439063) vcan0 123#D4A0D23F01E76F18
(1764930868.439449) vcan0 123#54A0D23F01E76F18
(1764930868.676069) vcan0 200#E2392FF77119CB14
(1764930873.454940) vcan0 123#94C94F1583349B6A
(1764930873.455340) vcan0 123#14C94F1583349B6A
(1764930873.690111) vcan0 200#C5A307848F3447FF
(1764930878.450155) vcan0 123#A619242E1152EBEF
(1764930878.450583) vcan0 123#2619242E1152EBEF
(1764930878.677072) vcan0 200#9547E82A821BAA55
(1764930883.452935) vcan0 123#5941C953B538623D
(1764930883.453337) vcan0 123#1941C953B538623D
(1764930883.688311) vcan0 200#622CC05FCA166A62
(1764930888.447053) vcan0 123#E75F9CB3E949E92C
(1764930888.447568) vcan0 123#675F9CB3E949E92C
(1764930888.683842) vcan0 200#C27B67805551C477
(1764930893.438628) vcan0 123#23DCBCA49F439CDA
(1764930893.439037) vcan0 123#03DCBCA49F439CDA
(1764930893.676987) vcan0 200#3B858979558C8B7D
(1764930898.446860) vcan0 123#4838982D73FE342C
(1764930898.447255) vcan0 123#0838982D73FE342C
(1764930898.679170) vcan0 200#DCF54D875D3A9D54
(1764930903.680399) vcan0 200#FC2169A8CC34D34A
(1764930903.701868) vcan0 123#3F31069708A7D5DF
(1764930903.702192) vcan0 123#1F31069708A7D5DF
(1764930908.445539) vcan0 123#35F1C863F74E63D2
(1764930908.445950) vcan0 123#15F1C863F74E63D2
(1764930908.446410) vcan0 7E0#0100000000000000
(1764930908.676990) vcan0 200#FE0F573141F7BF87
(1764930913.452294) vcan0 123#021FADFC5EC082DF
(1764930913.452714) vcan0 123#001FADFC5EC082DF
(1764930913.453559) vcan0 7E0#0100000000000000
(1764930913.676173) vcan0 200#35023D3238942FC6
(1764930918.455272) vcan0 123#1D301D4CCC4546FA
(1764930918.455676) vcan0 123#0D301D4CCC4546FA
(1764930918.456314) vcan0 7E0#0100000000000000
(1764930918.684457) vcan0 200#38485E864DE38CA0
(1764930923.441364) vcan0 123#65A1E32A5C4CEEC6
(1764930923.441742) vcan0 123#25A1E32A5C4CEEC6
(1764930923.441934) vcan0 7E0#0100000000000000
(1764930923.685703) vcan0 200#70B4DE6FA335A5CF
(1764930928.450210) vcan0 123#6EFFBF2BB01D4076
(1764930928.450603) vcan0 123#2EFFBF2BB01D4076
(1764930928.688961) vcan0 200#D466F0C0EDDAB5BD
(1764930933.438697) vcan0 123#F037680B60C95F25
(1764930933.439094) vcan0 123#7037680B60C95F25
(1764930933.672500) vcan0 200#6D3B9EAFCD19929D
(1764930938.445955) vcan0 123#61A7EC3AF2405680
(1764930938.447091) vcan0 123#21A7EC3AF2405680
(1764930938.447354) vcan0 7E0#0100000000000000
(1764930938.672638) vcan0 200#B6FE137866E3EE51
(1764930943.454554) vcan0 123#C5986F96334A1668
(1764930943.454955) vcan0 123#45986F96334A1668
(1764930943.455251) vcan0 7E0#0100000000000000
(1764930943.687223) vcan0 200#37F6B363E28ECA42
(1764930948.458764) vcan0 123#D6F9DB47B8BD5713
(1764930948.459107) vcan0 123#56F9DB47B8BD5713
(1764930948.459548) vcan0 7E0#0100000000000000
(1764930948.678677) vcan0 200#2C758A7EF17C82B5
(1764930953.451573) vcan0 123#EBC39762BC4ED815
(1764930953.452082) vcan0 123#6BC39762BC4ED815
(1764930953.452346) vcan0 7E0#0100000000000000
(1764930953.681516) vcan0 200#C97696C7B13A58FB
(1764930958.454404) vcan0 123#EBDA10A94F76E93C
(1764930958.455044) vcan0 123#6BDA10A94F76E93C
(1764930958.676623) vcan0 200#C8513A8274F56F37
(1764930963.445242) vcan0 123#4DB2AB13D76D11C0
(1764930963.445637) vcan0 123#0DB2AB13D76D11C0
(1764930963.671597) vcan0 200#A374842151C4645D
(1764930968.447029) vcan0 123#FC688BF69F08B8B8
(1764930968.447475) vcan0 123#7C688BF69F08B8B8
(1764930968.447723) vcan0 7E0#0100000000000000
(1764930968.674489) vcan0 200#63BFC2F878995402
(1764930973.453646) vcan0 123#2A0B521A49CD038A
(1764930973.454060) vcan0 123#0A0B521A49CD038A
(1764930973.670288) vcan0 200#41789423E0469217
(1764930978.446206) vcan0 123#A0522DBE53CE3D3A
(1764930978.446592) vcan0 123#20522DBE53CE3D3A
(1764930978.446882) vcan0 7E0#0100000000000000
(1764930978.672960) vcan0 200#6AF14EB82D38DF4E
(1764930983.451238) vcan0 123#C1CB5CCFEFD378EA
(1764930983.451638) vcan0 123#41CB5CCFEFD378EA
(1764930983.673302) vcan0 200#8B83B9D935138166
(1764930988.457905) vcan0 123#B22EA6B63BABCDB6
(1764930988.458402) vcan0 123#322EA6B63BABCDB6
(1764930988.676084) vcan0 200#D58C174136C3F14B
(1764930993.453427) vcan0 123#E72F7E03C8DD5889
(1764930993.453833) vcan0 123#672F7E03C8DD5889
(1764930993.454308) vcan0 7E0#0100000000000000
(1764930993.675156) vcan0 200#244E00A26783BB3C
(1764930998.443320) vcan0 123#C07FC03927DBEAEB
(1764930998.444111) vcan0 123#407FC03927DBEAEB
(1764930998.444314) vcan0 7E0#0100000000000000
(1764930998.670096) vcan0 200#DF162678C5196F09
(1764931003.458866) vcan0 123#67C63DA10D5A1611
(1764931003.459299) vcan0 123#27C63DA10D5A1611
(1764931003.672363) vcan0 200#EB0AE7F7BA63B241
(1764931008.444325) vcan0 123#0D4CEC9E78ADC796
(1764931008.444730) vcan0 123#054CEC9E78ADC796
(1764931008.677245) vcan0 200#99059C2E654CA0DA
(1764931013.454290) vcan0 123#AE0A75CAE7583C9A
(1764931013.454807) vcan0 123#2E0A75CAE7583C9A
(1764931013.685748) vcan0 200#C3346AEC28B183D1
(1764931018.441418) vcan0 123#B349589BEF5193EA
(1764931018.441845) vcan0 123#3349589BEF5193EA
(1764931018.442347) vcan0 7E0#0100000000000000
(1764931018.673327) vcan0 200#1B7E10EE368A6FF8
(1764931023.458221) vcan0 123#4A1F53ECDAC7B1ED
(1764931023.458593) vcan0 123#0A1F53ECDAC7B1ED
(1764931023.681540) vcan0 200#4B0CF5408E17DC52
(1764931028.458938) vcan0 123#8B3A53B2B95941C8
(1764931028.459319) vcan0 123#0B3A53B2B95941C8
(1764931028.459942) vcan0 7E0#0100000000000000
(1764931028.670645) vcan0 200#8F2A3ACB89079934
(1764931033.453044) vcan0 123#E0A7D46E6E53113D
(1764931033.453422) vcan0 123#60A7D46E6E53113D
(1764931033.686539) vcan0 200#2AF25F62499A8D91
(1764931038.447201) vcan0 123#BCACCF7846098132
(1764931038.447584) vcan0 123#3CACCF7846098132
(1764931038.448059) vcan0 7E0#0100000000000000
(1764931038.678313) vcan0 200#1988B330627804D4
(1764931043.454616) vcan0 123#D94FC0B523FC4FE7
(1764931043.454981) vcan0 123#594FC0B523FC4FE7
(1764931043.679077) vcan0 200#9FAED4544EB77F24
(1764931048.448063) vcan0 123#2F48C8959902DE9F
(1764931048.448446) vcan0 123#0F48C8959902DE9F
(1764931048.687758) vcan0 200#811B81B0DA910106
(1764931053.444108) vcan0 123#57DF092CF744890B
(1764931053.444477) vcan0 123#17DF092CF744890B
(1764931053.679234) vcan0 200#2AAAA3DE9C4F733F
(1764931058.440689) vcan0 123#B7580A15DD48FB8D
(1764931058.441064) vcan0 123#37580A15DD48FB8D
(1764931058.675914) vcan0 200#A83544D6C034CCEF
(1764931063.456411) vcan0 123#32E23D3A40374DCD
(1764931063.456815) vcan0 123#12E23D3A40374DCD
(1764931063.675042) vcan0 200#29707FBF65F3DE4B
(1764931068.446706) vcan0 123#D57C79874056333E
(1764931068.447093) vcan0 123#557C79874056333E
(1764931068.447369) vcan0 7E0#0100000000000000
(1764931068.684707) vcan0 200#056CDDD77359D992
(1764931073.449929) vcan0 123#4E35C7AA7748765B
(1764931073.450315) vcan0 123#0E35C7AA7748765B
(1764931073.675776) vcan0 200#796C74B8436E836D
(1764931078.439217) vcan0 123#495BF7785AA44D6D
(1764931078.439402) vcan0 123#095BF7785AA44D6D
(1764931078.678701) vcan0 200#0E34DD3E9F9D1448
(1764931083.456732) vcan0 123#52C10887CAF7D5A4
(1764931083.457162) vcan0 123#12C10887CAF7D5A4
(1764931083.457393) vcan0 7E0#0100000000000000
(1764931083.683752) vcan0 200#194040AC9C061493
